
T0EBC 000:280 SEGGER J-Link V4.98e Log File (0002ms, 0268ms total)
T0EBC 000:280 DLL Compiled: May  5 2015 11:00:52 (0002ms, 0268ms total)
T0EBC 000:280 Logging started @ 2017-12-06 16:21 (0002ms, 0268ms total)
T0EBC 000:282 JLINK_SetWarnOutHandler(...) (0000ms, 0268ms total)
T0EBC 000:282 JLINK_OpenEx(...)
Firmware: J-Link ARM-OB STM32 compiled Aug 22 2012 19:52:04
Hardware: V7.00
S/N: 20090928
Feature(s): RDI,FlashDL,FlashBP,JFlash,GDBFull  returns O.K. (0263ms, 0531ms total)
T0EBC 000:546 JLINK_SetErrorOutHandler(...) (0000ms, 0531ms total)
T0EBC 000:546 JLINK_ExecCommand("ProjectFile = "C:\Users\Moonlight\Desktop\Polling\Project\RVMDK£¨uv5£©\JLinkSettings.ini"", ...)  returns 0x00 (0001ms, 0532ms total)
T0EBC 000:550 JLINK_ExecCommand("Device = STM32F103ZE", ...)Device "STM32F103ZE" selected.  returns 0x00 (0022ms, 0554ms total)
T0EBC 000:572 JLINK_ExecCommand("DisableConnectionTimeout", ...)  returns 0x01 (0000ms, 0554ms total)
T0EBC 000:572 JLINK_GetHardwareVersion()  returns 0x11170 (0000ms, 0554ms total)
T0EBC 000:572 JLINK_GetDLLVersion()  returns 49805 (0000ms, 0554ms total)
T0EBC 000:573 JLINK_GetFirmwareString(...) (0000ms, 0555ms total)
T0EBC 000:615 JLINK_GetDLLVersion()  returns 49805 (0000ms, 0555ms total)
T0EBC 000:615 JLINK_GetCompileDateTime() (0000ms, 0555ms total)
T0EBC 000:619 JLINK_GetFirmwareString(...) (0000ms, 0555ms total)
T0EBC 000:623 JLINK_GetHardwareVersion()  returns 0x11170 (0000ms, 0555ms total)
T0EBC 000:655 JLINK_TIF_Select(JLINKARM_TIF_SWD)  returns 0x00 (0005ms, 0560ms total)
T0EBC 000:660 JLINK_SetSpeed(5000) (0000ms, 0560ms total)
T0EBC 000:660 JLINK_GetId() >0x108 TIF>Found SWD-DP with ID 0x1BA01477 >0x0D TIF> >0x28 TIF> >0x0D TIF> >0x28 TIF> >0x0D TIF> >0x21 TIF> >0x0D TIF> >0x28 TIF> >0x0D TIF> >0x28 TIF> >0x0D TIF> >0x28 TIF> >0x0D TIF> >0x21 TIF> >0x0D TIF> >0x21 TIF> >0x0D TIF> >0x28 TIF> >0x0D TIF> >0x21 TIF> >0x0D TIF> >0x21 TIF> >0x108 TIF>Found SWD-DP with ID 0x1BA01477 >0x0D TIF> >0x21 TIF> >0x0D TIF> >0x28 TIF> >0x0D TIF> >0x28 TIF> >0x0D TIF> >0x21 TIF> >0x0D TIF> >0x28 TIF> >0x0D TIF> >0x21 TIF> >0x0D TIF> >0x21 TIF>
 >0x0D TIF> >0x21 TIF> >0x0D TIF> >0x21 TIF> >0x0D TIF> >0x28 TIF> >0x0D TIF> >0x28 TIF> >0x0D TIF> >0x21 TIF> >0x0D TIF> >0x28 TIF> >0x0D TIF> >0x28 TIF> >0x0D TIF> >0x28 TIF> >0x0D TIF> >0x21 TIF> >0x0D TIF> >0x21 TIF> >0x0D TIF> >0x28 TIF> >0x0D TIF> >0x21 TIF> >0x0D TIF> >0x21 TIF>Found Cortex-M3 r1p1, Little endian. -- CPU_WriteMem(4 bytes @ 0xE0002000) -- CPU_ReadMem(4 bytes @ 0xE000EDF0) -- CPU_ReadMem(4 bytes @ 0xE0002000)FPUnit: 6 code (BP) slots and 2 literal slots
 -- CPU_ReadMem(4 bytes @ 0xE000EDFC) -- CPU_ReadMem(4 bytes @ 0xE0001000) -- CPU_WriteMem(4 bytes @ 0xE0001000) -- CPU_ReadMem(4 bytes @ 0xE000ED88) -- CPU_WriteMem(4 bytes @ 0xE000ED88) -- CPU_ReadMem(4 bytes @ 0xE000ED88) -- CPU_WriteMem(4 bytes @ 0xE000ED88)CoreSight components:ROMTbl 0 @ E00FF000 -- CPU_ReadMem(16 bytes @ 0xE00FF000) -- CPU_ReadMem(16 bytes @ 0xE000EFF0) -- CPU_ReadMem(16 bytes @ 0xE000EFE0)ROMTbl 0 [0]: FFF0F000, CID: B105E00D, PID: 001BB000 SCS
 -- CPU_ReadMem(16 bytes @ 0xE0001FF0) -- CPU_ReadMem(16 bytes @ 0xE0001FE0)ROMTbl 0 [1]: FFF02000, CID: B105E00D, PID: 001BB002 DWT -- CPU_ReadMem(16 bytes @ 0xE0002FF0) -- CPU_ReadMem(16 bytes @ 0xE0002FE0)ROMTbl 0 [2]: FFF03000, CID: B105E00D, PID: 000BB003 FPB -- CPU_ReadMem(16 bytes @ 0xE0000FF0) -- CPU_ReadMem(16 bytes @ 0xE0000FE0)ROMTbl 0 [3]: FFF01000, CID: B105E00D, PID: 001BB001 ITM -- CPU_ReadMem(16 bytes @ 0xE00FF010) -- CPU_ReadMem(16 bytes @ 0xE0040FF0)
 -- CPU_ReadMem(16 bytes @ 0xE0040FE0)ROMTbl 0 [4]: FFF41000, CID: B105900D, PID: 001BB923 TPIU-Lite -- CPU_ReadMem(16 bytes @ 0xE0041FF0) -- CPU_ReadMem(16 bytes @ 0xE0041FE0)ROMTbl 0 [5]: FFF42000, CID: B105900D, PID: 101BB924 ETM-M3 >0x0D TIF> >0x21 TIF>  returns 0x1BA01477 (0071ms, 0631ms total)
T0EBC 000:731 JLINK_GetDLLVersion()  returns 49805 (0001ms, 0632ms total)
T0EBC 000:732 JLINK_CORE_GetFound()  returns 0x30000FF (0000ms, 0632ms total)
T0EBC 000:732 JLINK_GetDebugInfo(0x100) -- Value=0xE00FF003  returns 0x00 (0000ms, 0632ms total)
T0EBC 000:735 JLINK_ReadMem (0xE00FF000, 0x0020 Bytes, ...) -- CPU is running -- CPU_ReadMem(32 bytes @ 0xE00FF000) - Data: 03 F0 F0 FF 03 20 F0 FF 03 30 F0 FF 03 10 F0 FF ...  returns 0x00 (0001ms, 0633ms total)
T0EBC 000:736 JLINK_ReadMem (0xE000EFF0, 0x0010 Bytes, ...) -- CPU is running -- CPU_ReadMem(16 bytes @ 0xE000EFF0) - Data: 0D 00 00 00 E0 00 00 00 05 00 00 00 B1 00 00 00  returns 0x00 (0001ms, 0634ms total)
T0EBC 000:737 JLINK_ReadMem (0xE000EFD0, 0x0020 Bytes, ...) -- CPU is running -- CPU_ReadMem(32 bytes @ 0xE000EFD0) - Data: 04 00 00 00 00 00 00 00 00 00 00 00 00 00 00 00 ...  returns 0x00 (0000ms, 0634ms total)
T0EBC 000:737 JLINK_ReadMem (0xE0001FF0, 0x0010 Bytes, ...) -- CPU is running -- CPU_ReadMem(16 bytes @ 0xE0001FF0) - Data: 0D 00 00 00 E0 00 00 00 05 00 00 00 B1 00 00 00  returns 0x00 (0001ms, 0635ms total)
T0EBC 000:738 JLINK_ReadMem (0xE0001FD0, 0x0020 Bytes, ...) -- CPU is running -- CPU_ReadMem(32 bytes @ 0xE0001FD0) - Data: 04 00 00 00 00 00 00 00 00 00 00 00 00 00 00 00 ...  returns 0x00 (0001ms, 0636ms total)
T0EBC 000:739 JLINK_ReadMem (0xE0002FF0, 0x0010 Bytes, ...) -- CPU is running -- CPU_ReadMem(16 bytes @ 0xE0002FF0) - Data: 0D 00 00 00 E0 00 00 00 05 00 00 00 B1 00 00 00  returns 0x00 (0000ms, 0636ms total)
T0EBC 000:739 JLINK_ReadMem (0xE0002FD0, 0x0020 Bytes, ...) -- CPU is running -- CPU_ReadMem(32 bytes @ 0xE0002FD0) - Data: 04 00 00 00 00 00 00 00 00 00 00 00 00 00 00 00 ...  returns 0x00 (0001ms, 0637ms total)
T0EBC 000:740 JLINK_ReadMem (0xE0000FF0, 0x0010 Bytes, ...) -- CPU is running -- CPU_ReadMem(16 bytes @ 0xE0000FF0) - Data: 0D 00 00 00 E0 00 00 00 05 00 00 00 B1 00 00 00  returns 0x00 (0001ms, 0638ms total)
T0EBC 000:741 JLINK_ReadMem (0xE0000FD0, 0x0020 Bytes, ...) -- CPU is running -- CPU_ReadMem(32 bytes @ 0xE0000FD0) - Data: 04 00 00 00 00 00 00 00 00 00 00 00 00 00 00 00 ...  returns 0x00 (0000ms, 0638ms total)
T0EBC 000:741 JLINK_ReadMem (0xE0040FF0, 0x0010 Bytes, ...) -- CPU is running -- CPU_ReadMem(16 bytes @ 0xE0040FF0) - Data: 0D 00 00 00 90 00 00 00 05 00 00 00 B1 00 00 00  returns 0x00 (0001ms, 0639ms total)
T0EBC 000:742 JLINK_ReadMem (0xE0040FD0, 0x0020 Bytes, ...) -- CPU is running -- CPU_ReadMem(32 bytes @ 0xE0040FD0) - Data: 04 00 00 00 00 00 00 00 00 00 00 00 00 00 00 00 ...  returns 0x00 (0001ms, 0640ms total)
T0EBC 000:743 JLINK_ReadMem (0xE0041FF0, 0x0010 Bytes, ...) -- CPU is running -- CPU_ReadMem(16 bytes @ 0xE0041FF0) - Data: 0D 00 00 00 90 00 00 00 05 00 00 00 B1 00 00 00  returns 0x00 (0000ms, 0640ms total)
T0EBC 000:743 JLINK_ReadMem (0xE0041FD0, 0x0020 Bytes, ...) -- CPU is running -- CPU_ReadMem(32 bytes @ 0xE0041FD0) - Data: 04 00 00 00 00 00 00 00 00 00 00 00 00 00 00 00 ...  returns 0x00 (0001ms, 0641ms total)
T0EBC 000:744 JLINK_ReadMemU32(0xE000ED00, 0x0001 Items, ...) -- CPU is running -- CPU_ReadMem(4 bytes @ 0xE000ED00) - Data: 31 C2 1F 41  returns 0x01 (0000ms, 0641ms total)
T0EBC 000:744 JLINK_SetResetType(JLINKARM_RESET_TYPE_NORMAL)  returns JLINKARM_RESET_TYPE_NORMAL (0000ms, 0641ms total)
T0EBC 000:744 JLINK_Reset() -- CPU is running -- CPU_WriteMem(4 bytes @ 0xE000EDF0) -- CPU is running -- CPU_WriteMem(4 bytes @ 0xE000EDFC) >0x35 TIF> -- CPU is running -- CPU_WriteMem(4 bytes @ 0xE000ED0C) -- CPU is running -- CPU_ReadMem(4 bytes @ 0xE000EDF0) -- CPU is running -- CPU_ReadMem(4 bytes @ 0xE000EDF0) -- CPU is running -- CPU_WriteMem(4 bytes @ 0xE000EDF0) -- CPU is running -- CPU_WriteMem(4 bytes @ 0xE000EDFC) -- CPU is running -- CPU_ReadMem(4 bytes @ 0xE000EDF0)
 -- CPU_WriteMem(4 bytes @ 0xE0002000) -- CPU_ReadMem(4 bytes @ 0xE000EDFC) -- CPU_ReadMem(4 bytes @ 0xE0001000) (0016ms, 0657ms total)
T0EBC 000:760 JLINK_Halt()  returns 0x00 (0000ms, 0657ms total)
T0EBC 000:760 JLINK_IsHalted()  returns TRUE (0000ms, 0657ms total)
T0EBC 000:760 JLINK_ReadMemU32(0xE000EDF0, 0x0001 Items, ...) -- CPU_ReadMem(4 bytes @ 0xE000EDF0) - Data: 03 00 03 00  returns 0x01 (0001ms, 0658ms total)
T0EBC 000:761 JLINK_WriteU32(0xE000EDF0, 0xA05F0003) -- CPU_WriteMem(4 bytes @ 0xE000EDF0)  returns 0x00 (0000ms, 0658ms total)
T0EBC 000:761 JLINK_WriteU32(0xE000EDFC, 0x01000000) -- CPU_WriteMem(4 bytes @ 0xE000EDFC)  returns 0x00 (0001ms, 0659ms total)
T0EBC 000:776 JLINK_GetHWStatus(...)  returns 0x00 (0001ms, 0660ms total)
T0EBC 000:787 JLINK_GetNumBPUnits(Type = 0xFFFFFF00)  returns 0x06 (0001ms, 0661ms total)
T0EBC 000:788 JLINK_GetNumBPUnits(Type = 0xF0)  returns 0x2000 (0000ms, 0661ms total)
T0EBC 000:788 JLINK_GetNumWPUnits()  returns 0x04 (0000ms, 0661ms total)
T0EBC 000:799 JLINK_GetSpeed()  returns 0xFA0 (0000ms, 0661ms total)
T0EBC 000:807 JLINK_ReadMemU32(0xE000E004, 0x0001 Items, ...) -- CPU_ReadMem(4 bytes @ 0xE000E004) - Data: 01 00 00 00  returns 0x01 (0000ms, 0661ms total)
T0EBC 000:807 JLINK_ReadMemU32(0xE000E004, 0x0001 Items, ...) -- CPU_ReadMem(4 bytes @ 0xE000E004) - Data: 01 00 00 00  returns 0x01 (0000ms, 0661ms total)
T0EBC 000:807 JLINK_WriteMem(0xE0001000, 0x001C Bytes, ...) - Data: 01 00 00 00 00 00 00 00 00 00 00 00 00 00 00 00 ... -- CPU_WriteMem(28 bytes @ 0xE0001000)  returns 0x1C (0002ms, 0663ms total)
T0EBC 000:809 JLINK_ReadMem (0xE0001000, 0x001C Bytes, ...) -- CPU_ReadMem(28 bytes @ 0xE0001000) - Data: 01 00 00 40 00 00 00 00 00 00 00 00 00 00 00 00 ...  returns 0x00 (0000ms, 0663ms total)
T0EBC 000:809 JLINK_Halt()  returns 0x00 (0000ms, 0663ms total)
T0EBC 000:809 JLINK_IsHalted()  returns TRUE (0000ms, 0663ms total)
T0EBC 000:812 JLINK_WriteMem(0x20000000, 0x0164 Bytes, ...) - Data: 00 BE 0A E0 0D 78 2D 06 68 40 08 24 40 00 00 D3 ... -- CPU_WriteMem(356 bytes @ 0x20000000)  returns 0x164 (0005ms, 0668ms total)
T0EBC 000:817 JLINK_WriteReg(R0, 0x08000000)  returns 0x00 (0000ms, 0668ms total)
T0EBC 000:817 JLINK_WriteReg(R1, 0x00B71B00)  returns 0x00 (0000ms, 0668ms total)
T0EBC 000:817 JLINK_WriteReg(R2, 0x00000001)  returns 0x00 (0000ms, 0668ms total)
T0EBC 000:817 JLINK_WriteReg(R3, 0x00000000)  returns 0x00 (0000ms, 0668ms total)
T0EBC 000:817 JLINK_WriteReg(R4, 0x00000000)  returns 0x00 (0000ms, 0668ms total)
T0EBC 000:817 JLINK_WriteReg(R5, 0x00000000)  returns 0x00 (0000ms, 0668ms total)
T0EBC 000:817 JLINK_WriteReg(R6, 0x00000000)  returns 0x00 (0000ms, 0668ms total)
T0EBC 000:817 JLINK_WriteReg(R7, 0x00000000)  returns 0x00 (0000ms, 0668ms total)
T0EBC 000:817 JLINK_WriteReg(R8, 0x00000000)  returns 0x00 (0000ms, 0668ms total)
T0EBC 000:817 JLINK_WriteReg(R9, 0x20000160)  returns 0x00 (0000ms, 0668ms total)
T0EBC 000:817 JLINK_WriteReg(R10, 0x00000000)  returns 0x00 (0000ms, 0668ms total)
T0EBC 000:817 JLINK_WriteReg(R11, 0x00000000)  returns 0x00 (0000ms, 0668ms total)
T0EBC 000:817 JLINK_WriteReg(R12, 0x00000000)  returns 0x00 (0000ms, 0668ms total)
T0EBC 000:817 JLINK_WriteReg(R13 (SP), 0x20001000)  returns 0x00 (0000ms, 0668ms total)
T0EBC 000:817 JLINK_WriteReg(R14, 0x20000001)  returns 0x00 (0001ms, 0669ms total)
T0EBC 000:818 JLINK_WriteReg(R15 (PC), 0x20000038)  returns 0x00 (0000ms, 0669ms total)
T0EBC 000:818 JLINK_WriteReg(XPSR, 0x01000000)  returns 0x00 (0000ms, 0669ms total)
T0EBC 000:818 JLINK_WriteReg(MSP, 0x20001000)  returns 0x00 (0000ms, 0669ms total)
T0EBC 000:818 JLINK_WriteReg(PSP, 0x20001000)  returns 0x00 (0000ms, 0669ms total)
T0EBC 000:818 JLINK_WriteReg(CFBP, 0x00000000)  returns 0x00 (0000ms, 0669ms total)
T0EBC 000:818 JLINK_SetBPEx(Addr = 0x20000000, Type = 0xFFFFFFF2) -- CPU_ReadMem(2 bytes @ 0x20000000)  returns 0x00000001 (0000ms, 0669ms total)
T0EBC 000:818 JLINK_Go() -- CPU_WriteMem(2 bytes @ 0x20000000) -- CPU_ReadMem(4 bytes @ 0xE0001000) -- CPU_WriteMem(4 bytes @ 0xE0002008) -- CPU_WriteMem(4 bytes @ 0xE000200C) -- CPU_WriteMem(4 bytes @ 0xE0002010) -- CPU_WriteMem(4 bytes @ 0xE0002014) -- CPU_WriteMem(4 bytes @ 0xE0002018) -- CPU_WriteMem(4 bytes @ 0xE000201C) -- CPU_WriteMem(4 bytes @ 0xE0001004) (0007ms, 0676ms total)
T0EBC 000:825 JLINK_IsHalted() -- CPU_ReadMem(2 bytes @ 0x20000000)  returns TRUE (0003ms, 0679ms total)
T0EBC 000:828 JLINK_ReadReg(R15 (PC))  returns 0x20000000 (0000ms, 0676ms total)
T0EBC 000:828 JLINK_ClrBPEx(BPHandle = 0x00000001)  returns 0x00 (0000ms, 0676ms total)
T0EBC 000:828 JLINK_ReadReg(R0)  returns 0x00000000 (0000ms, 0676ms total)
T0EBC 000:829 JLINK_WriteReg(R0, 0x08000000)  returns 0x00 (0000ms, 0677ms total)
T0EBC 000:829 JLINK_WriteReg(R1, 0x00B71B00)  returns 0x00 (0000ms, 0677ms total)
T0EBC 000:829 JLINK_WriteReg(R2, 0x00000001)  returns 0x00 (0000ms, 0677ms total)
T0EBC 000:829 JLINK_WriteReg(R3, 0x00000000)  returns 0x00 (0000ms, 0677ms total)
T0EBC 000:829 JLINK_WriteReg(R4, 0x00000000)  returns 0x00 (0000ms, 0677ms total)
T0EBC 000:829 JLINK_WriteReg(R5, 0x00000000)  returns 0x00 (0000ms, 0677ms total)
T0EBC 000:829 JLINK_WriteReg(R6, 0x00000000)  returns 0x00 (0000ms, 0677ms total)
T0EBC 000:829 JLINK_WriteReg(R7, 0x00000000)  returns 0x00 (0000ms, 0677ms total)
T0EBC 000:829 JLINK_WriteReg(R8, 0x00000000)  returns 0x00 (0000ms, 0677ms total)
T0EBC 000:829 JLINK_WriteReg(R9, 0x20000160)  returns 0x00 (0000ms, 0677ms total)
T0EBC 000:829 JLINK_WriteReg(R10, 0x00000000)  returns 0x00 (0000ms, 0677ms total)
T0EBC 000:829 JLINK_WriteReg(R11, 0x00000000)  returns 0x00 (0000ms, 0677ms total)
T0EBC 000:829 JLINK_WriteReg(R12, 0x00000000)  returns 0x00 (0000ms, 0677ms total)
T0EBC 000:829 JLINK_WriteReg(R13 (SP), 0x20001000)  returns 0x00 (0000ms, 0677ms total)
T0EBC 000:829 JLINK_WriteReg(R14, 0x20000001)  returns 0x00 (0000ms, 0677ms total)
T0EBC 000:829 JLINK_WriteReg(R15 (PC), 0x2000007C)  returns 0x00 (0000ms, 0677ms total)
T0EBC 000:829 JLINK_WriteReg(XPSR, 0x01000000)  returns 0x00 (0000ms, 0677ms total)
T0EBC 000:829 JLINK_WriteReg(MSP, 0x20001000)  returns 0x00 (0000ms, 0677ms total)
T0EBC 000:829 JLINK_WriteReg(PSP, 0x20001000)  returns 0x00 (0000ms, 0677ms total)
T0EBC 000:829 JLINK_WriteReg(CFBP, 0x00000000)  returns 0x00 (0000ms, 0677ms total)
T0EBC 000:829 JLINK_SetBPEx(Addr = 0x20000000, Type = 0xFFFFFFF2)  returns 0x00000002 (0000ms, 0677ms total)
T0EBC 000:829 JLINK_Go() -- CPU_ReadMem(4 bytes @ 0xE0001000) (0002ms, 0679ms total)
T0EBC 000:831 JLINK_IsHalted()  returns FALSE (0000ms, 0679ms total)
T0EBC 001:014 JLINK_IsHalted() -- CPU_ReadMem(2 bytes @ 0x20000000)  returns TRUE (0003ms, 0682ms total)
T0EBC 001:017 JLINK_ReadReg(R15 (PC))  returns 0x20000000 (0000ms, 0679ms total)
T0EBC 001:017 JLINK_ClrBPEx(BPHandle = 0x00000002)  returns 0x00 (0000ms, 0679ms total)
T0EBC 001:017 JLINK_ReadReg(R0)  returns 0x00000000 (0000ms, 0679ms total)
T0EBC 001:069 JLINK_WriteReg(R0, 0x00000001)  returns 0x00 (0000ms, 0679ms total)
T0EBC 001:069 JLINK_WriteReg(R1, 0x00B71B00)  returns 0x00 (0000ms, 0679ms total)
T0EBC 001:069 JLINK_WriteReg(R2, 0x00000001)  returns 0x00 (0000ms, 0679ms total)
T0EBC 001:069 JLINK_WriteReg(R3, 0x00000000)  returns 0x00 (0000ms, 0679ms total)
T0EBC 001:069 JLINK_WriteReg(R4, 0x00000000)  returns 0x00 (0000ms, 0679ms total)
T0EBC 001:069 JLINK_WriteReg(R5, 0x00000000)  returns 0x00 (0000ms, 0679ms total)
T0EBC 001:069 JLINK_WriteReg(R6, 0x00000000)  returns 0x00 (0000ms, 0679ms total)
T0EBC 001:069 JLINK_WriteReg(R7, 0x00000000)  returns 0x00 (0000ms, 0679ms total)
T0EBC 001:069 JLINK_WriteReg(R8, 0x00000000)  returns 0x00 (0000ms, 0679ms total)
T0EBC 001:069 JLINK_WriteReg(R9, 0x20000160)  returns 0x00 (0000ms, 0679ms total)
T0EBC 001:069 JLINK_WriteReg(R10, 0x00000000)  returns 0x00 (0000ms, 0679ms total)
T0EBC 001:069 JLINK_WriteReg(R11, 0x00000000)  returns 0x00 (0000ms, 0679ms total)
T0EBC 001:069 JLINK_WriteReg(R12, 0x00000000)  returns 0x00 (0000ms, 0679ms total)
T0EBC 001:069 JLINK_WriteReg(R13 (SP), 0x20001000)  returns 0x00 (0000ms, 0679ms total)
T0EBC 001:069 JLINK_WriteReg(R14, 0x20000001)  returns 0x00 (0000ms, 0679ms total)
T0EBC 001:069 JLINK_WriteReg(R15 (PC), 0x2000006A)  returns 0x00 (0000ms, 0679ms total)
T0EBC 001:069 JLINK_WriteReg(XPSR, 0x01000000)  returns 0x00 (0000ms, 0679ms total)
T0EBC 001:069 JLINK_WriteReg(MSP, 0x20001000)  returns 0x00 (0000ms, 0679ms total)
T0EBC 001:069 JLINK_WriteReg(PSP, 0x20001000)  returns 0x00 (0000ms, 0679ms total)
T0EBC 001:069 JLINK_WriteReg(CFBP, 0x00000000)  returns 0x00 (0000ms, 0679ms total)
T0EBC 001:069 JLINK_SetBPEx(Addr = 0x20000000, Type = 0xFFFFFFF2)  returns 0x00000003 (0000ms, 0679ms total)
T0EBC 001:069 JLINK_Go() -- CPU_ReadMem(4 bytes @ 0xE0001000) (0002ms, 0681ms total)
T0EBC 001:071 JLINK_IsHalted() -- CPU_ReadMem(2 bytes @ 0x20000000)  returns TRUE (0004ms, 0685ms total)
T0EBC 001:075 JLINK_ReadReg(R15 (PC))  returns 0x20000000 (0000ms, 0681ms total)
T0EBC 001:075 JLINK_ClrBPEx(BPHandle = 0x00000003)  returns 0x00 (0000ms, 0681ms total)
T0EBC 001:075 JLINK_ReadReg(R0)  returns 0x00000000 (0000ms, 0681ms total)
T0EBC 001:080 JLINK_WriteMem(0x20000000, 0x0164 Bytes, ...) - Data: 00 BE 0A E0 0D 78 2D 06 68 40 08 24 40 00 00 D3 ... -- CPU_WriteMem(356 bytes @ 0x20000000)  returns 0x164 (0005ms, 0686ms total)
T0EBC 001:085 JLINK_WriteReg(R0, 0x08000000)  returns 0x00 (0000ms, 0686ms total)
T0EBC 001:085 JLINK_WriteReg(R1, 0x00B71B00)  returns 0x00 (0000ms, 0686ms total)
T0EBC 001:085 JLINK_WriteReg(R2, 0x00000002)  returns 0x00 (0000ms, 0686ms total)
T0EBC 001:085 JLINK_WriteReg(R3, 0x00000000)  returns 0x00 (0000ms, 0686ms total)
T0EBC 001:085 JLINK_WriteReg(R4, 0x00000000)  returns 0x00 (0000ms, 0686ms total)
T0EBC 001:085 JLINK_WriteReg(R5, 0x00000000)  returns 0x00 (0000ms, 0686ms total)
T0EBC 001:085 JLINK_WriteReg(R6, 0x00000000)  returns 0x00 (0000ms, 0686ms total)
T0EBC 001:085 JLINK_WriteReg(R7, 0x00000000)  returns 0x00 (0000ms, 0686ms total)
T0EBC 001:085 JLINK_WriteReg(R8, 0x00000000)  returns 0x00 (0000ms, 0686ms total)
T0EBC 001:085 JLINK_WriteReg(R9, 0x20000160)  returns 0x00 (0000ms, 0686ms total)
T0EBC 001:085 JLINK_WriteReg(R10, 0x00000000)  returns 0x00 (0000ms, 0686ms total)
T0EBC 001:085 JLINK_WriteReg(R11, 0x00000000)  returns 0x00 (0000ms, 0686ms total)
T0EBC 001:085 JLINK_WriteReg(R12, 0x00000000)  returns 0x00 (0000ms, 0686ms total)
T0EBC 001:085 JLINK_WriteReg(R13 (SP), 0x20001000)  returns 0x00 (0000ms, 0686ms total)
T0EBC 001:085 JLINK_WriteReg(R14, 0x20000001)  returns 0x00 (0000ms, 0686ms total)
T0EBC 001:085 JLINK_WriteReg(R15 (PC), 0x20000038)  returns 0x00 (0000ms, 0686ms total)
T0EBC 001:085 JLINK_WriteReg(XPSR, 0x01000000)  returns 0x00 (0000ms, 0686ms total)
T0EBC 001:085 JLINK_WriteReg(MSP, 0x20001000)  returns 0x00 (0000ms, 0686ms total)
T0EBC 001:085 JLINK_WriteReg(PSP, 0x20001000)  returns 0x00 (0000ms, 0686ms total)
T0EBC 001:085 JLINK_WriteReg(CFBP, 0x00000000)  returns 0x00 (0000ms, 0686ms total)
T0EBC 001:085 JLINK_SetBPEx(Addr = 0x20000000, Type = 0xFFFFFFF2) -- CPU_ReadMem(2 bytes @ 0x20000000)  returns 0x00000004 (0001ms, 0687ms total)
T0EBC 001:086 JLINK_Go() -- CPU_WriteMem(2 bytes @ 0x20000000) -- CPU_ReadMem(4 bytes @ 0xE0001000) (0002ms, 0689ms total)
T0EBC 001:088 JLINK_IsHalted() -- CPU_ReadMem(2 bytes @ 0x20000000)  returns TRUE (0004ms, 0693ms total)
T0EBC 001:092 JLINK_ReadReg(R15 (PC))  returns 0x20000000 (0000ms, 0689ms total)
T0EBC 001:092 JLINK_ClrBPEx(BPHandle = 0x00000004)  returns 0x00 (0000ms, 0689ms total)
T0EBC 001:092 JLINK_ReadReg(R0)  returns 0x00000000 (0000ms, 0689ms total)
T0EBC 001:092 JLINK_WriteMem(0x20000164, 0x0400 Bytes, ...) - Data: C8 E7 00 20 45 01 00 08 6F 19 00 08 1D 17 00 08 ... -- CPU_WriteMem(1024 bytes @ 0x20000164)  returns 0x400 (0012ms, 0701ms total)
T0EBC 001:104 JLINK_WriteReg(R0, 0x08000000)  returns 0x00 (0000ms, 0701ms total)
T0EBC 001:104 JLINK_WriteReg(R1, 0x00000400)  returns 0x00 (0000ms, 0701ms total)
T0EBC 001:104 JLINK_WriteReg(R2, 0x20000164)  returns 0x00 (0000ms, 0701ms total)
T0EBC 001:104 JLINK_WriteReg(R3, 0x00000000)  returns 0x00 (0000ms, 0701ms total)
T0EBC 001:104 JLINK_WriteReg(R4, 0x00000000)  returns 0x00 (0000ms, 0701ms total)
T0EBC 001:104 JLINK_WriteReg(R5, 0x00000000)  returns 0x00 (0000ms, 0701ms total)
T0EBC 001:104 JLINK_WriteReg(R6, 0x00000000)  returns 0x00 (0001ms, 0702ms total)
T0EBC 001:105 JLINK_WriteReg(R7, 0x00000000)  returns 0x00 (0000ms, 0702ms total)
T0EBC 001:105 JLINK_WriteReg(R8, 0x00000000)  returns 0x00 (0000ms, 0702ms total)
T0EBC 001:105 JLINK_WriteReg(R9, 0x20000160)  returns 0x00 (0000ms, 0702ms total)
T0EBC 001:105 JLINK_WriteReg(R10, 0x00000000)  returns 0x00 (0000ms, 0702ms total)
T0EBC 001:105 JLINK_WriteReg(R11, 0x00000000)  returns 0x00 (0000ms, 0702ms total)
T0EBC 001:105 JLINK_WriteReg(R12, 0x00000000)  returns 0x00 (0000ms, 0702ms total)
T0EBC 001:105 JLINK_WriteReg(R13 (SP), 0x20001000)  returns 0x00 (0000ms, 0702ms total)
T0EBC 001:105 JLINK_WriteReg(R14, 0x20000001)  returns 0x00 (0000ms, 0702ms total)
T0EBC 001:105 JLINK_WriteReg(R15 (PC), 0x200000F4)  returns 0x00 (0000ms, 0702ms total)
T0EBC 001:105 JLINK_WriteReg(XPSR, 0x01000000)  returns 0x00 (0000ms, 0702ms total)
T0EBC 001:105 JLINK_WriteReg(MSP, 0x20001000)  returns 0x00 (0000ms, 0702ms total)
T0EBC 001:105 JLINK_WriteReg(PSP, 0x20001000)  returns 0x00 (0000ms, 0702ms total)
T0EBC 001:105 JLINK_WriteReg(CFBP, 0x00000000)  returns 0x00 (0000ms, 0702ms total)
T0EBC 001:105 JLINK_SetBPEx(Addr = 0x20000000, Type = 0xFFFFFFF2)  returns 0x00000005 (0000ms, 0702ms total)
T0EBC 001:105 JLINK_Go() -- CPU_ReadMem(4 bytes @ 0xE0001000) (0003ms, 0705ms total)
T0EBC 001:108 JLINK_IsHalted()  returns FALSE (0000ms, 0705ms total)
T0EBC 001:143 JLINK_IsHalted() -- CPU_ReadMem(2 bytes @ 0x20000000)  returns TRUE (0003ms, 0708ms total)
T0EBC 001:146 JLINK_ReadReg(R15 (PC))  returns 0x20000000 (0000ms, 0705ms total)
T0EBC 001:146 JLINK_ClrBPEx(BPHandle = 0x00000005)  returns 0x00 (0000ms, 0705ms total)
T0EBC 001:146 JLINK_ReadReg(R0)  returns 0x00000000 (0000ms, 0705ms total)
T0EBC 001:147 JLINK_WriteMem(0x20000164, 0x0400 Bytes, ...) - Data: 6E EB 07 0C 87 0E 92 0E 47 EA 81 17 42 EA 83 12 ... -- CPU_WriteMem(1024 bytes @ 0x20000164)  returns 0x400 (0014ms, 0719ms total)
T0EBC 001:161 JLINK_WriteReg(R0, 0x08000400)  returns 0x00 (0000ms, 0719ms total)
T0EBC 001:161 JLINK_WriteReg(R1, 0x00000400)  returns 0x00 (0000ms, 0719ms total)
T0EBC 001:161 JLINK_WriteReg(R2, 0x20000164)  returns 0x00 (0000ms, 0719ms total)
T0EBC 001:161 JLINK_WriteReg(R3, 0x00000000)  returns 0x00 (0000ms, 0719ms total)
T0EBC 001:161 JLINK_WriteReg(R4, 0x00000000)  returns 0x00 (0000ms, 0719ms total)
T0EBC 001:161 JLINK_WriteReg(R5, 0x00000000)  returns 0x00 (0000ms, 0719ms total)
T0EBC 001:161 JLINK_WriteReg(R6, 0x00000000)  returns 0x00 (0000ms, 0719ms total)
T0EBC 001:161 JLINK_WriteReg(R7, 0x00000000)  returns 0x00 (0000ms, 0719ms total)
T0EBC 001:161 JLINK_WriteReg(R8, 0x00000000)  returns 0x00 (0000ms, 0719ms total)
T0EBC 001:161 JLINK_WriteReg(R9, 0x20000160)  returns 0x00 (0000ms, 0719ms total)
T0EBC 001:161 JLINK_WriteReg(R10, 0x00000000)  returns 0x00 (0000ms, 0719ms total)
T0EBC 001:161 JLINK_WriteReg(R11, 0x00000000)  returns 0x00 (0000ms, 0719ms total)
T0EBC 001:161 JLINK_WriteReg(R12, 0x00000000)  returns 0x00 (0000ms, 0719ms total)
T0EBC 001:161 JLINK_WriteReg(R13 (SP), 0x20001000)  returns 0x00 (0000ms, 0719ms total)
T0EBC 001:161 JLINK_WriteReg(R14, 0x20000001)  returns 0x00 (0000ms, 0719ms total)
T0EBC 001:161 JLINK_WriteReg(R15 (PC), 0x200000F4)  returns 0x00 (0000ms, 0719ms total)
T0EBC 001:161 JLINK_WriteReg(XPSR, 0x01000000)  returns 0x00 (0000ms, 0719ms total)
T0EBC 001:161 JLINK_WriteReg(MSP, 0x20001000)  returns 0x00 (0000ms, 0719ms total)
T0EBC 001:161 JLINK_WriteReg(PSP, 0x20001000)  returns 0x00 (0000ms, 0719ms total)
T0EBC 001:161 JLINK_WriteReg(CFBP, 0x00000000)  returns 0x00 (0000ms, 0719ms total)
T0EBC 001:161 JLINK_SetBPEx(Addr = 0x20000000, Type = 0xFFFFFFF2)  returns 0x00000006 (0000ms, 0719ms total)
T0EBC 001:161 JLINK_Go() -- CPU_ReadMem(4 bytes @ 0xE0001000) (0018ms, 0737ms total)
T0EBC 001:179 JLINK_IsHalted()  returns FALSE (0010ms, 0747ms total)
T0EBC 001:256 JLINK_IsHalted() -- CPU_ReadMem(2 bytes @ 0x20000000)  returns TRUE (0003ms, 0740ms total)
T0EBC 001:259 JLINK_ReadReg(R15 (PC))  returns 0x20000000 (0000ms, 0737ms total)
T0EBC 001:259 JLINK_ClrBPEx(BPHandle = 0x00000006)  returns 0x00 (0000ms, 0737ms total)
T0EBC 001:259 JLINK_ReadReg(R0)  returns 0x00000000 (0000ms, 0737ms total)
T0EBC 001:260 JLINK_WriteMem(0x20000164, 0x0400 Bytes, ...) - Data: 94 E8 07 00 98 47 10 34 AC 42 F6 D3 FF F7 94 FC ... -- CPU_WriteMem(1024 bytes @ 0x20000164)  returns 0x400 (0012ms, 0749ms total)
T0EBC 001:272 JLINK_WriteReg(R0, 0x08000800)  returns 0x00 (0001ms, 0750ms total)
T0EBC 001:273 JLINK_WriteReg(R1, 0x00000400)  returns 0x00 (0000ms, 0750ms total)
T0EBC 001:273 JLINK_WriteReg(R2, 0x20000164)  returns 0x00 (0000ms, 0750ms total)
T0EBC 001:273 JLINK_WriteReg(R3, 0x00000000)  returns 0x00 (0000ms, 0750ms total)
T0EBC 001:273 JLINK_WriteReg(R4, 0x00000000)  returns 0x00 (0000ms, 0750ms total)
T0EBC 001:273 JLINK_WriteReg(R5, 0x00000000)  returns 0x00 (0000ms, 0750ms total)
T0EBC 001:273 JLINK_WriteReg(R6, 0x00000000)  returns 0x00 (0000ms, 0750ms total)
T0EBC 001:273 JLINK_WriteReg(R7, 0x00000000)  returns 0x00 (0000ms, 0750ms total)
T0EBC 001:273 JLINK_WriteReg(R8, 0x00000000)  returns 0x00 (0000ms, 0750ms total)
T0EBC 001:273 JLINK_WriteReg(R9, 0x20000160)  returns 0x00 (0000ms, 0750ms total)
T0EBC 001:273 JLINK_WriteReg(R10, 0x00000000)  returns 0x00 (0000ms, 0750ms total)
T0EBC 001:273 JLINK_WriteReg(R11, 0x00000000)  returns 0x00 (0000ms, 0750ms total)
T0EBC 001:273 JLINK_WriteReg(R12, 0x00000000)  returns 0x00 (0000ms, 0750ms total)
T0EBC 001:273 JLINK_WriteReg(R13 (SP), 0x20001000)  returns 0x00 (0000ms, 0750ms total)
T0EBC 001:273 JLINK_WriteReg(R14, 0x20000001)  returns 0x00 (0000ms, 0750ms total)
T0EBC 001:273 JLINK_WriteReg(R15 (PC), 0x200000F4)  returns 0x00 (0000ms, 0750ms total)
T0EBC 001:273 JLINK_WriteReg(XPSR, 0x01000000)  returns 0x00 (0000ms, 0750ms total)
T0EBC 001:273 JLINK_WriteReg(MSP, 0x20001000)  returns 0x00 (0000ms, 0750ms total)
T0EBC 001:273 JLINK_WriteReg(PSP, 0x20001000)  returns 0x00 (0000ms, 0750ms total)
T0EBC 001:273 JLINK_WriteReg(CFBP, 0x00000000)  returns 0x00 (0000ms, 0750ms total)
T0EBC 001:273 JLINK_SetBPEx(Addr = 0x20000000, Type = 0xFFFFFFF2)  returns 0x00000007 (0000ms, 0750ms total)
T0EBC 001:273 JLINK_Go() -- CPU_ReadMem(4 bytes @ 0xE0001000) (0002ms, 0752ms total)
T0EBC 001:276 JLINK_IsHalted()  returns FALSE (0000ms, 0753ms total)
T0EBC 001:280 JLINK_IsHalted()  returns FALSE (0000ms, 0753ms total)
T0EBC 001:281 JLINK_IsHalted()  returns FALSE (0000ms, 0753ms total)
T0EBC 001:282 JLINK_IsHalted()  returns FALSE (0000ms, 0753ms total)
T0EBC 001:283 JLINK_IsHalted()  returns FALSE (0000ms, 0753ms total)
T0EBC 001:284 JLINK_IsHalted()  returns FALSE (0000ms, 0753ms total)
T0EBC 001:289 JLINK_IsHalted()  returns FALSE (0001ms, 0754ms total)
T0EBC 001:291 JLINK_IsHalted()  returns FALSE (0000ms, 0753ms total)
T0EBC 001:292 JLINK_IsHalted()  returns FALSE (0000ms, 0753ms total)
T0EBC 001:293 JLINK_IsHalted()  returns FALSE (0000ms, 0753ms total)
T0EBC 001:294 JLINK_IsHalted()  returns FALSE (0000ms, 0753ms total)
T0EBC 001:295 JLINK_IsHalted()  returns FALSE (0000ms, 0753ms total)
T0EBC 001:296 JLINK_IsHalted()  returns FALSE (0000ms, 0753ms total)
T0EBC 001:297 JLINK_IsHalted()  returns FALSE (0000ms, 0753ms total)
T0EBC 001:298 JLINK_IsHalted()  returns FALSE (0000ms, 0753ms total)
T0EBC 001:299 JLINK_IsHalted()  returns FALSE (0000ms, 0753ms total)
T0EBC 001:300 JLINK_IsHalted()  returns FALSE (0000ms, 0753ms total)
T0EBC 001:301 JLINK_IsHalted()  returns FALSE (0000ms, 0753ms total)
T0EBC 001:302 JLINK_IsHalted()  returns FALSE (0000ms, 0753ms total)
T0EBC 001:327 JLINK_IsHalted() -- CPU_ReadMem(2 bytes @ 0x20000000)  returns TRUE (0003ms, 0756ms total)
T0EBC 001:330 JLINK_ReadReg(R15 (PC))  returns 0x20000000 (0000ms, 0753ms total)
T0EBC 001:330 JLINK_ClrBPEx(BPHandle = 0x00000007)  returns 0x00 (0000ms, 0753ms total)
T0EBC 001:330 JLINK_ReadReg(R0)  returns 0x00000000 (0000ms, 0753ms total)
T0EBC 001:331 JLINK_WriteMem(0x20000164, 0x0400 Bytes, ...) - Data: 70 B5 8A B0 06 46 00 F0 01 F9 00 F0 0F F9 00 F0 ... -- CPU_WriteMem(1024 bytes @ 0x20000164)  returns 0x400 (0012ms, 0765ms total)
T0EBC 001:343 JLINK_WriteReg(R0, 0x08000C00)  returns 0x00 (0000ms, 0765ms total)
T0EBC 001:343 JLINK_WriteReg(R1, 0x00000400)  returns 0x00 (0000ms, 0765ms total)
T0EBC 001:343 JLINK_WriteReg(R2, 0x20000164)  returns 0x00 (0000ms, 0765ms total)
T0EBC 001:343 JLINK_WriteReg(R3, 0x00000000)  returns 0x00 (0001ms, 0766ms total)
T0EBC 001:344 JLINK_WriteReg(R4, 0x00000000)  returns 0x00 (0000ms, 0766ms total)
T0EBC 001:344 JLINK_WriteReg(R5, 0x00000000)  returns 0x00 (0000ms, 0766ms total)
T0EBC 001:344 JLINK_WriteReg(R6, 0x00000000)  returns 0x00 (0000ms, 0766ms total)
T0EBC 001:344 JLINK_WriteReg(R7, 0x00000000)  returns 0x00 (0000ms, 0766ms total)
T0EBC 001:344 JLINK_WriteReg(R8, 0x00000000)  returns 0x00 (0000ms, 0766ms total)
T0EBC 001:344 JLINK_WriteReg(R9, 0x20000160)  returns 0x00 (0000ms, 0766ms total)
T0EBC 001:344 JLINK_WriteReg(R10, 0x00000000)  returns 0x00 (0000ms, 0766ms total)
T0EBC 001:344 JLINK_WriteReg(R11, 0x00000000)  returns 0x00 (0000ms, 0766ms total)
T0EBC 001:344 JLINK_WriteReg(R12, 0x00000000)  returns 0x00 (0000ms, 0766ms total)
T0EBC 001:344 JLINK_WriteReg(R13 (SP), 0x20001000)  returns 0x00 (0000ms, 0766ms total)
T0EBC 001:344 JLINK_WriteReg(R14, 0x20000001)  returns 0x00 (0000ms, 0766ms total)
T0EBC 001:344 JLINK_WriteReg(R15 (PC), 0x200000F4)  returns 0x00 (0000ms, 0766ms total)
T0EBC 001:344 JLINK_WriteReg(XPSR, 0x01000000)  returns 0x00 (0000ms, 0766ms total)
T0EBC 001:344 JLINK_WriteReg(MSP, 0x20001000)  returns 0x00 (0000ms, 0766ms total)
T0EBC 001:344 JLINK_WriteReg(PSP, 0x20001000)  returns 0x00 (0000ms, 0766ms total)
T0EBC 001:344 JLINK_WriteReg(CFBP, 0x00000000)  returns 0x00 (0000ms, 0766ms total)
T0EBC 001:344 JLINK_SetBPEx(Addr = 0x20000000, Type = 0xFFFFFFF2)  returns 0x00000008 (0000ms, 0766ms total)
T0EBC 001:344 JLINK_Go() -- CPU_ReadMem(4 bytes @ 0xE0001000) (0004ms, 0770ms total)
T0EBC 001:348 JLINK_IsHalted()  returns FALSE (0000ms, 0770ms total)
T0EBC 001:354 JLINK_IsHalted()  returns FALSE (0000ms, 0770ms total)
T0EBC 001:355 JLINK_IsHalted()  returns FALSE (0000ms, 0770ms total)
T0EBC 001:356 JLINK_IsHalted()  returns FALSE (0000ms, 0770ms total)
T0EBC 001:357 JLINK_IsHalted()  returns FALSE (0000ms, 0770ms total)
T0EBC 001:358 JLINK_IsHalted()  returns FALSE (0000ms, 0770ms total)
T0EBC 001:359 JLINK_IsHalted()  returns FALSE (0000ms, 0770ms total)
T0EBC 001:360 JLINK_IsHalted()  returns FALSE (0000ms, 0770ms total)
T0EBC 001:361 JLINK_IsHalted()  returns FALSE (0000ms, 0770ms total)
T0EBC 001:362 JLINK_IsHalted()  returns FALSE (0000ms, 0770ms total)
T0EBC 001:363 JLINK_IsHalted()  returns FALSE (0000ms, 0770ms total)
T0EBC 001:364 JLINK_IsHalted()  returns FALSE (0000ms, 0770ms total)
T0EBC 001:365 JLINK_IsHalted()  returns FALSE (0000ms, 0770ms total)
T0EBC 001:366 JLINK_IsHalted()  returns FALSE (0000ms, 0770ms total)
T0EBC 001:370 JLINK_IsHalted()  returns FALSE (0000ms, 0770ms total)
T0EBC 001:372 JLINK_IsHalted()  returns FALSE (0000ms, 0770ms total)
T0EBC 001:373 JLINK_IsHalted()  returns FALSE (0000ms, 0770ms total)
T0EBC 001:374 JLINK_IsHalted()  returns FALSE (0000ms, 0770ms total)
T0EBC 001:375 JLINK_IsHalted()  returns FALSE (0000ms, 0770ms total)
T0EBC 001:376 JLINK_IsHalted()  returns FALSE (0000ms, 0770ms total)
T0EBC 001:377 JLINK_IsHalted() -- CPU_ReadMem(2 bytes @ 0x20000000)  returns TRUE (0003ms, 0773ms total)
T0EBC 001:380 JLINK_ReadReg(R15 (PC))  returns 0x20000000 (0000ms, 0770ms total)
T0EBC 001:380 JLINK_ClrBPEx(BPHandle = 0x00000008)  returns 0x00 (0000ms, 0770ms total)
T0EBC 001:380 JLINK_ReadReg(R0)  returns 0x00000000 (0000ms, 0770ms total)
T0EBC 001:381 JLINK_WriteMem(0x20000164, 0x0400 Bytes, ...) - Data: 06 48 00 F0 55 FC 00 BF FF F7 C4 FF 00 BF 20 46 ... -- CPU_WriteMem(1024 bytes @ 0x20000164)  returns 0x400 (0012ms, 0782ms total)
T0EBC 001:393 JLINK_WriteReg(R0, 0x08001000)  returns 0x00 (0000ms, 0782ms total)
T0EBC 001:393 JLINK_WriteReg(R1, 0x00000400)  returns 0x00 (0000ms, 0782ms total)
T0EBC 001:393 JLINK_WriteReg(R2, 0x20000164)  returns 0x00 (0000ms, 0782ms total)
T0EBC 001:393 JLINK_WriteReg(R3, 0x00000000)  returns 0x00 (0000ms, 0782ms total)
T0EBC 001:393 JLINK_WriteReg(R4, 0x00000000)  returns 0x00 (0000ms, 0782ms total)
T0EBC 001:393 JLINK_WriteReg(R5, 0x00000000)  returns 0x00 (0000ms, 0782ms total)
T0EBC 001:393 JLINK_WriteReg(R6, 0x00000000)  returns 0x00 (0000ms, 0782ms total)
T0EBC 001:393 JLINK_WriteReg(R7, 0x00000000)  returns 0x00 (0000ms, 0782ms total)
T0EBC 001:393 JLINK_WriteReg(R8, 0x00000000)  returns 0x00 (0000ms, 0782ms total)
T0EBC 001:393 JLINK_WriteReg(R9, 0x20000160)  returns 0x00 (0000ms, 0782ms total)
T0EBC 001:393 JLINK_WriteReg(R10, 0x00000000)  returns 0x00 (0000ms, 0782ms total)
T0EBC 001:393 JLINK_WriteReg(R11, 0x00000000)  returns 0x00 (0000ms, 0782ms total)
T0EBC 001:393 JLINK_WriteReg(R12, 0x00000000)  returns 0x00 (0000ms, 0782ms total)
T0EBC 001:393 JLINK_WriteReg(R13 (SP), 0x20001000)  returns 0x00 (0000ms, 0782ms total)
T0EBC 001:393 JLINK_WriteReg(R14, 0x20000001)  returns 0x00 (0000ms, 0782ms total)
T0EBC 001:393 JLINK_WriteReg(R15 (PC), 0x200000F4)  returns 0x00 (0000ms, 0782ms total)
T0EBC 001:393 JLINK_WriteReg(XPSR, 0x01000000)  returns 0x00 (0000ms, 0782ms total)
T0EBC 001:393 JLINK_WriteReg(MSP, 0x20001000)  returns 0x00 (0000ms, 0782ms total)
T0EBC 001:393 JLINK_WriteReg(PSP, 0x20001000)  returns 0x00 (0000ms, 0782ms total)
T0EBC 001:393 JLINK_WriteReg(CFBP, 0x00000000)  returns 0x00 (0000ms, 0782ms total)
T0EBC 001:393 JLINK_SetBPEx(Addr = 0x20000000, Type = 0xFFFFFFF2)  returns 0x00000009 (0000ms, 0782ms total)
T0EBC 001:393 JLINK_Go() -- CPU_ReadMem(4 bytes @ 0xE0001000) (0002ms, 0784ms total)
T0EBC 001:396 JLINK_IsHalted()  returns FALSE (0000ms, 0785ms total)
T0EBC 001:400 JLINK_IsHalted()  returns FALSE (0000ms, 0785ms total)
T0EBC 001:405 JLINK_IsHalted()  returns FALSE (0000ms, 0785ms total)
T0EBC 001:406 JLINK_IsHalted()  returns FALSE (0000ms, 0785ms total)
T0EBC 001:407 JLINK_IsHalted()  returns FALSE (0000ms, 0785ms total)
T0EBC 001:408 JLINK_IsHalted()  returns FALSE (0000ms, 0785ms total)
T0EBC 001:409 JLINK_IsHalted()  returns FALSE (0000ms, 0785ms total)
T0EBC 001:433 JLINK_IsHalted() -- CPU_ReadMem(2 bytes @ 0x20000000)  returns TRUE (0003ms, 0788ms total)
T0EBC 001:436 JLINK_ReadReg(R15 (PC))  returns 0x20000000 (0000ms, 0785ms total)
T0EBC 001:436 JLINK_ClrBPEx(BPHandle = 0x00000009)  returns 0x00 (0000ms, 0785ms total)
T0EBC 001:436 JLINK_ReadReg(R0)  returns 0x00000000 (0000ms, 0785ms total)
T0EBC 001:437 JLINK_WriteMem(0x20000164, 0x0400 Bytes, ...) - Data: 60 70 03 E0 25 46 64 69 00 2C E7 D1 00 BF 70 BD ... -- CPU_WriteMem(1024 bytes @ 0x20000164)  returns 0x400 (0012ms, 0797ms total)
T0EBC 001:449 JLINK_WriteReg(R0, 0x08001400)  returns 0x00 (0000ms, 0797ms total)
T0EBC 001:449 JLINK_WriteReg(R1, 0x00000400)  returns 0x00 (0000ms, 0797ms total)
T0EBC 001:449 JLINK_WriteReg(R2, 0x20000164)  returns 0x00 (0000ms, 0797ms total)
T0EBC 001:449 JLINK_WriteReg(R3, 0x00000000)  returns 0x00 (0000ms, 0797ms total)
T0EBC 001:449 JLINK_WriteReg(R4, 0x00000000)  returns 0x00 (0000ms, 0797ms total)
T0EBC 001:449 JLINK_WriteReg(R5, 0x00000000)  returns 0x00 (0000ms, 0797ms total)
T0EBC 001:449 JLINK_WriteReg(R6, 0x00000000)  returns 0x00 (0000ms, 0797ms total)
T0EBC 001:449 JLINK_WriteReg(R7, 0x00000000)  returns 0x00 (0000ms, 0797ms total)
T0EBC 001:449 JLINK_WriteReg(R8, 0x00000000)  returns 0x00 (0000ms, 0797ms total)
T0EBC 001:449 JLINK_WriteReg(R9, 0x20000160)  returns 0x00 (0000ms, 0797ms total)
T0EBC 001:449 JLINK_WriteReg(R10, 0x00000000)  returns 0x00 (0000ms, 0797ms total)
T0EBC 001:449 JLINK_WriteReg(R11, 0x00000000)  returns 0x00 (0000ms, 0797ms total)
T0EBC 001:449 JLINK_WriteReg(R12, 0x00000000)  returns 0x00 (0000ms, 0797ms total)
T0EBC 001:449 JLINK_WriteReg(R13 (SP), 0x20001000)  returns 0x00 (0000ms, 0797ms total)
T0EBC 001:449 JLINK_WriteReg(R14, 0x20000001)  returns 0x00 (0000ms, 0797ms total)
T0EBC 001:449 JLINK_WriteReg(R15 (PC), 0x200000F4)  returns 0x00 (0000ms, 0797ms total)
T0EBC 001:449 JLINK_WriteReg(XPSR, 0x01000000)  returns 0x00 (0000ms, 0797ms total)
T0EBC 001:449 JLINK_WriteReg(MSP, 0x20001000)  returns 0x00 (0001ms, 0798ms total)
T0EBC 001:450 JLINK_WriteReg(PSP, 0x20001000)  returns 0x00 (0000ms, 0798ms total)
T0EBC 001:450 JLINK_WriteReg(CFBP, 0x00000000)  returns 0x00 (0000ms, 0798ms total)
T0EBC 001:450 JLINK_SetBPEx(Addr = 0x20000000, Type = 0xFFFFFFF2)  returns 0x0000000A (0000ms, 0798ms total)
T0EBC 001:450 JLINK_Go() -- CPU_ReadMem(4 bytes @ 0xE0001000) (0002ms, 0800ms total)
T0EBC 001:452 JLINK_IsHalted()  returns FALSE (0000ms, 0800ms total)
T0EBC 001:457 JLINK_IsHalted()  returns FALSE (0000ms, 0800ms total)
T0EBC 001:458 JLINK_IsHalted()  returns FALSE (0000ms, 0800ms total)
T0EBC 001:459 JLINK_IsHalted()  returns FALSE (0014ms, 0814ms total)
T0EBC 001:479 JLINK_IsHalted()  returns FALSE (0001ms, 0801ms total)
T0EBC 001:488 JLINK_IsHalted() -- CPU_ReadMem(2 bytes @ 0x20000000)  returns TRUE (0014ms, 0814ms total)
T0EBC 001:502 JLINK_ReadReg(R15 (PC))  returns 0x20000000 (0000ms, 0800ms total)
T0EBC 001:502 JLINK_ClrBPEx(BPHandle = 0x0000000A)  returns 0x00 (0000ms, 0800ms total)
T0EBC 001:502 JLINK_ReadReg(R0)  returns 0x00000000 (0000ms, 0800ms total)
T0EBC 001:503 JLINK_WriteMem(0x20000164, 0x0400 Bytes, ...) - Data: 00 00 28 20 8D F8 03 00 69 46 02 48 FF F7 14 FE ... -- CPU_WriteMem(1024 bytes @ 0x20000164)  returns 0x400 (0012ms, 0812ms total)
T0EBC 001:515 JLINK_WriteReg(R0, 0x08001800)  returns 0x00 (0000ms, 0812ms total)
T0EBC 001:515 JLINK_WriteReg(R1, 0x00000400)  returns 0x00 (0000ms, 0812ms total)
T0EBC 001:515 JLINK_WriteReg(R2, 0x20000164)  returns 0x00 (0000ms, 0812ms total)
T0EBC 001:515 JLINK_WriteReg(R3, 0x00000000)  returns 0x00 (0000ms, 0812ms total)
T0EBC 001:515 JLINK_WriteReg(R4, 0x00000000)  returns 0x00 (0000ms, 0812ms total)
T0EBC 001:515 JLINK_WriteReg(R5, 0x00000000)  returns 0x00 (0000ms, 0812ms total)
T0EBC 001:515 JLINK_WriteReg(R6, 0x00000000)  returns 0x00 (0000ms, 0812ms total)
T0EBC 001:515 JLINK_WriteReg(R7, 0x00000000)  returns 0x00 (0000ms, 0812ms total)
T0EBC 001:515 JLINK_WriteReg(R8, 0x00000000)  returns 0x00 (0000ms, 0812ms total)
T0EBC 001:515 JLINK_WriteReg(R9, 0x20000160)  returns 0x00 (0000ms, 0812ms total)
T0EBC 001:515 JLINK_WriteReg(R10, 0x00000000)  returns 0x00 (0000ms, 0812ms total)
T0EBC 001:515 JLINK_WriteReg(R11, 0x00000000)  returns 0x00 (0000ms, 0812ms total)
T0EBC 001:515 JLINK_WriteReg(R12, 0x00000000)  returns 0x00 (0000ms, 0812ms total)
T0EBC 001:515 JLINK_WriteReg(R13 (SP), 0x20001000)  returns 0x00 (0000ms, 0812ms total)
T0EBC 001:516 JLINK_WriteReg(R14, 0x20000001)  returns 0x00 (0000ms, 0813ms total)
T0EBC 001:516 JLINK_WriteReg(R15 (PC), 0x200000F4)  returns 0x00 (0000ms, 0813ms total)
T0EBC 001:516 JLINK_WriteReg(XPSR, 0x01000000)  returns 0x00 (0000ms, 0813ms total)
T0EBC 001:516 JLINK_WriteReg(MSP, 0x20001000)  returns 0x00 (0000ms, 0813ms total)
T0EBC 001:516 JLINK_WriteReg(PSP, 0x20001000)  returns 0x00 (0000ms, 0813ms total)
T0EBC 001:516 JLINK_WriteReg(CFBP, 0x00000000)  returns 0x00 (0000ms, 0813ms total)
T0EBC 001:516 JLINK_SetBPEx(Addr = 0x20000000, Type = 0xFFFFFFF2)  returns 0x0000000B (0000ms, 0813ms total)
T0EBC 001:516 JLINK_Go() -- CPU_ReadMem(4 bytes @ 0xE0001000) (0002ms, 0815ms total)
T0EBC 001:518 JLINK_IsHalted()  returns FALSE (0000ms, 0815ms total)
T0EBC 001:551 JLINK_IsHalted() -- CPU_ReadMem(2 bytes @ 0x20000000)  returns TRUE (0003ms, 0818ms total)
T0EBC 001:554 JLINK_ReadReg(R15 (PC))  returns 0x20000000 (0000ms, 0815ms total)
T0EBC 001:554 JLINK_ClrBPEx(BPHandle = 0x0000000B)  returns 0x00 (0000ms, 0815ms total)
T0EBC 001:554 JLINK_ReadReg(R0)  returns 0x00000000 (0000ms, 0815ms total)
T0EBC 001:555 JLINK_WriteMem(0x20000164, 0x0400 Bytes, ...) - Data: 0A 4A 11 68 00 20 02 E0 00 22 04 C1 40 1C 08 4A ... -- CPU_WriteMem(1024 bytes @ 0x20000164)  returns 0x400 (0012ms, 0827ms total)
T0EBC 001:567 JLINK_WriteReg(R0, 0x08001C00)  returns 0x00 (0000ms, 0827ms total)
T0EBC 001:567 JLINK_WriteReg(R1, 0x00000400)  returns 0x00 (0000ms, 0827ms total)
T0EBC 001:567 JLINK_WriteReg(R2, 0x20000164)  returns 0x00 (0000ms, 0827ms total)
T0EBC 001:567 JLINK_WriteReg(R3, 0x00000000)  returns 0x00 (0000ms, 0827ms total)
T0EBC 001:567 JLINK_WriteReg(R4, 0x00000000)  returns 0x00 (0000ms, 0827ms total)
T0EBC 001:567 JLINK_WriteReg(R5, 0x00000000)  returns 0x00 (0000ms, 0827ms total)
T0EBC 001:567 JLINK_WriteReg(R6, 0x00000000)  returns 0x00 (0000ms, 0827ms total)
T0EBC 001:567 JLINK_WriteReg(R7, 0x00000000)  returns 0x00 (0000ms, 0827ms total)
T0EBC 001:567 JLINK_WriteReg(R8, 0x00000000)  returns 0x00 (0000ms, 0827ms total)
T0EBC 001:567 JLINK_WriteReg(R9, 0x20000160)  returns 0x00 (0000ms, 0827ms total)
T0EBC 001:567 JLINK_WriteReg(R10, 0x00000000)  returns 0x00 (0000ms, 0827ms total)
T0EBC 001:567 JLINK_WriteReg(R11, 0x00000000)  returns 0x00 (0000ms, 0827ms total)
T0EBC 001:567 JLINK_WriteReg(R12, 0x00000000)  returns 0x00 (0000ms, 0827ms total)
T0EBC 001:567 JLINK_WriteReg(R13 (SP), 0x20001000)  returns 0x00 (0000ms, 0827ms total)
T0EBC 001:567 JLINK_WriteReg(R14, 0x20000001)  returns 0x00 (0000ms, 0827ms total)
T0EBC 001:567 JLINK_WriteReg(R15 (PC), 0x200000F4)  returns 0x00 (0000ms, 0827ms total)
T0EBC 001:567 JLINK_WriteReg(XPSR, 0x01000000)  returns 0x00 (0000ms, 0827ms total)
T0EBC 001:567 JLINK_WriteReg(MSP, 0x20001000)  returns 0x00 (0001ms, 0828ms total)
T0EBC 001:568 JLINK_WriteReg(PSP, 0x20001000)  returns 0x00 (0000ms, 0828ms total)
T0EBC 001:568 JLINK_WriteReg(CFBP, 0x00000000)  returns 0x00 (0000ms, 0828ms total)
T0EBC 001:568 JLINK_SetBPEx(Addr = 0x20000000, Type = 0xFFFFFFF2)  returns 0x0000000C (0000ms, 0828ms total)
T0EBC 001:568 JLINK_Go() -- CPU_ReadMem(4 bytes @ 0xE0001000) (0002ms, 0830ms total)
T0EBC 001:570 JLINK_IsHalted()  returns FALSE (0000ms, 0830ms total)
T0EBC 001:574 JLINK_IsHalted()  returns FALSE (0000ms, 0830ms total)
T0EBC 001:575 JLINK_IsHalted()  returns FALSE (0000ms, 0830ms total)
T0EBC 001:576 JLINK_IsHalted()  returns FALSE (0000ms, 0830ms total)
T0EBC 001:577 JLINK_IsHalted()  returns FALSE (0000ms, 0830ms total)
T0EBC 001:578 JLINK_IsHalted()  returns FALSE (0000ms, 0830ms total)
T0EBC 001:579 JLINK_IsHalted()  returns FALSE (0000ms, 0830ms total)
T0EBC 001:580 JLINK_IsHalted()  returns FALSE (0000ms, 0830ms total)
T0EBC 001:581 JLINK_IsHalted()  returns FALSE (0000ms, 0830ms total)
T0EBC 001:582 JLINK_IsHalted()  returns FALSE (0000ms, 0830ms total)
T0EBC 001:583 JLINK_IsHalted()  returns FALSE (0000ms, 0830ms total)
T0EBC 001:587 JLINK_IsHalted()  returns FALSE (0000ms, 0830ms total)
T0EBC 001:588 JLINK_IsHalted()  returns FALSE (0000ms, 0830ms total)
T0EBC 001:589 JLINK_IsHalted()  returns FALSE (0000ms, 0830ms total)
T0EBC 001:590 JLINK_IsHalted()  returns FALSE (0000ms, 0830ms total)
T0EBC 001:591 JLINK_IsHalted()  returns FALSE (0000ms, 0830ms total)
T0EBC 001:592 JLINK_IsHalted()  returns FALSE (0000ms, 0830ms total)
T0EBC 001:593 JLINK_IsHalted()  returns FALSE (0000ms, 0830ms total)
T0EBC 001:594 JLINK_IsHalted()  returns FALSE (0000ms, 0830ms total)
T0EBC 001:595 JLINK_IsHalted()  returns FALSE (0000ms, 0830ms total)
T0EBC 001:596 JLINK_IsHalted()  returns FALSE (0000ms, 0830ms total)
T0EBC 001:597 JLINK_IsHalted()  returns FALSE (0000ms, 0830ms total)
T0EBC 001:598 JLINK_IsHalted()  returns FALSE (0000ms, 0830ms total)
T0EBC 001:599 JLINK_IsHalted()  returns FALSE (0000ms, 0830ms total)
T0EBC 001:603 JLINK_IsHalted() -- CPU_ReadMem(2 bytes @ 0x20000000)  returns TRUE (0004ms, 0834ms total)
T0EBC 001:607 JLINK_ReadReg(R15 (PC))  returns 0x20000000 (0000ms, 0830ms total)
T0EBC 001:607 JLINK_ClrBPEx(BPHandle = 0x0000000C)  returns 0x00 (0000ms, 0830ms total)
T0EBC 001:607 JLINK_ReadReg(R0)  returns 0x00000000 (0000ms, 0830ms total)
T0EBC 001:607 JLINK_WriteMem(0x20000164, 0x0400 Bytes, ...) - Data: A0 62 20 20 84 F8 24 00 04 F1 08 00 02 F0 47 FC ... -- CPU_WriteMem(1024 bytes @ 0x20000164)  returns 0x400 (0013ms, 0843ms total)
T0EBC 001:620 JLINK_WriteReg(R0, 0x08002000)  returns 0x00 (0000ms, 0843ms total)
T0EBC 001:620 JLINK_WriteReg(R1, 0x00000400)  returns 0x00 (0000ms, 0843ms total)
T0EBC 001:620 JLINK_WriteReg(R2, 0x20000164)  returns 0x00 (0000ms, 0843ms total)
T0EBC 001:620 JLINK_WriteReg(R3, 0x00000000)  returns 0x00 (0000ms, 0843ms total)
T0EBC 001:620 JLINK_WriteReg(R4, 0x00000000)  returns 0x00 (0000ms, 0843ms total)
T0EBC 001:620 JLINK_WriteReg(R5, 0x00000000)  returns 0x00 (0000ms, 0843ms total)
T0EBC 001:620 JLINK_WriteReg(R6, 0x00000000)  returns 0x00 (0000ms, 0843ms total)
T0EBC 001:620 JLINK_WriteReg(R7, 0x00000000)  returns 0x00 (0000ms, 0843ms total)
T0EBC 001:620 JLINK_WriteReg(R8, 0x00000000)  returns 0x00 (0000ms, 0843ms total)
T0EBC 001:620 JLINK_WriteReg(R9, 0x20000160)  returns 0x00 (0000ms, 0843ms total)
T0EBC 001:620 JLINK_WriteReg(R10, 0x00000000)  returns 0x00 (0000ms, 0843ms total)
T0EBC 001:620 JLINK_WriteReg(R11, 0x00000000)  returns 0x00 (0000ms, 0843ms total)
T0EBC 001:620 JLINK_WriteReg(R12, 0x00000000)  returns 0x00 (0000ms, 0843ms total)
T0EBC 001:620 JLINK_WriteReg(R13 (SP), 0x20001000)  returns 0x00 (0000ms, 0843ms total)
T0EBC 001:620 JLINK_WriteReg(R14, 0x20000001)  returns 0x00 (0000ms, 0843ms total)
T0EBC 001:620 JLINK_WriteReg(R15 (PC), 0x200000F4)  returns 0x00 (0000ms, 0843ms total)
T0EBC 001:620 JLINK_WriteReg(XPSR, 0x01000000)  returns 0x00 (0000ms, 0843ms total)
T0EBC 001:620 JLINK_WriteReg(MSP, 0x20001000)  returns 0x00 (0000ms, 0843ms total)
T0EBC 001:620 JLINK_WriteReg(PSP, 0x20001000)  returns 0x00 (0000ms, 0843ms total)
T0EBC 001:620 JLINK_WriteReg(CFBP, 0x00000000)  returns 0x00 (0000ms, 0843ms total)
T0EBC 001:620 JLINK_SetBPEx(Addr = 0x20000000, Type = 0xFFFFFFF2)  returns 0x0000000D (0000ms, 0843ms total)
T0EBC 001:620 JLINK_Go() -- CPU_ReadMem(4 bytes @ 0xE0001000) (0002ms, 0845ms total)
T0EBC 001:622 JLINK_IsHalted()  returns FALSE (0001ms, 0846ms total)
T0EBC 001:666 JLINK_IsHalted() -- CPU_ReadMem(2 bytes @ 0x20000000)  returns TRUE (0003ms, 0848ms total)
T0EBC 001:669 JLINK_ReadReg(R15 (PC))  returns 0x20000000 (0000ms, 0845ms total)
T0EBC 001:669 JLINK_ClrBPEx(BPHandle = 0x0000000D)  returns 0x00 (0000ms, 0845ms total)
T0EBC 001:669 JLINK_ReadReg(R0)  returns 0x00000000 (0000ms, 0845ms total)
T0EBC 001:670 JLINK_WriteMem(0x20000164, 0x0400 Bytes, ...) - Data: AF FD 00 BF 89 49 20 6A 09 68 88 42 0C D0 00 BF ... -- CPU_WriteMem(1024 bytes @ 0x20000164)  returns 0x400 (0012ms, 0857ms total)
T0EBC 001:682 JLINK_WriteReg(R0, 0x08002400)  returns 0x00 (0000ms, 0857ms total)
T0EBC 001:682 JLINK_WriteReg(R1, 0x00000400)  returns 0x00 (0000ms, 0857ms total)
T0EBC 001:682 JLINK_WriteReg(R2, 0x20000164)  returns 0x00 (0000ms, 0857ms total)
T0EBC 001:682 JLINK_WriteReg(R3, 0x00000000)  returns 0x00 (0000ms, 0857ms total)
T0EBC 001:682 JLINK_WriteReg(R4, 0x00000000)  returns 0x00 (0000ms, 0857ms total)
T0EBC 001:682 JLINK_WriteReg(R5, 0x00000000)  returns 0x00 (0000ms, 0857ms total)
T0EBC 001:682 JLINK_WriteReg(R6, 0x00000000)  returns 0x00 (0000ms, 0857ms total)
T0EBC 001:682 JLINK_WriteReg(R7, 0x00000000)  returns 0x00 (0000ms, 0857ms total)
T0EBC 001:682 JLINK_WriteReg(R8, 0x00000000)  returns 0x00 (0000ms, 0857ms total)
T0EBC 001:682 JLINK_WriteReg(R9, 0x20000160)  returns 0x00 (0000ms, 0857ms total)
T0EBC 001:682 JLINK_WriteReg(R10, 0x00000000)  returns 0x00 (0000ms, 0857ms total)
T0EBC 001:682 JLINK_WriteReg(R11, 0x00000000)  returns 0x00 (0000ms, 0857ms total)
T0EBC 001:682 JLINK_WriteReg(R12, 0x00000000)  returns 0x00 (0000ms, 0857ms total)
T0EBC 001:682 JLINK_WriteReg(R13 (SP), 0x20001000)  returns 0x00 (0000ms, 0857ms total)
T0EBC 001:682 JLINK_WriteReg(R14, 0x20000001)  returns 0x00 (0000ms, 0857ms total)
T0EBC 001:682 JLINK_WriteReg(R15 (PC), 0x200000F4)  returns 0x00 (0000ms, 0857ms total)
T0EBC 001:682 JLINK_WriteReg(XPSR, 0x01000000)  returns 0x00 (0000ms, 0857ms total)
T0EBC 001:682 JLINK_WriteReg(MSP, 0x20001000)  returns 0x00 (0000ms, 0857ms total)
T0EBC 001:682 JLINK_WriteReg(PSP, 0x20001000)  returns 0x00 (0000ms, 0857ms total)
T0EBC 001:682 JLINK_WriteReg(CFBP, 0x00000000)  returns 0x00 (0000ms, 0857ms total)
T0EBC 001:682 JLINK_SetBPEx(Addr = 0x20000000, Type = 0xFFFFFFF2)  returns 0x0000000E (0000ms, 0857ms total)
T0EBC 001:682 JLINK_Go() -- CPU_ReadMem(4 bytes @ 0xE0001000) (0003ms, 0860ms total)
T0EBC 001:685 JLINK_IsHalted()  returns FALSE (0000ms, 0860ms total)
T0EBC 001:689 JLINK_IsHalted()  returns FALSE (0000ms, 0860ms total)
T0EBC 001:690 JLINK_IsHalted()  returns FALSE (0000ms, 0860ms total)
T0EBC 001:691 JLINK_IsHalted()  returns FALSE (0000ms, 0860ms total)
T0EBC 001:692 JLINK_IsHalted()  returns FALSE (0000ms, 0860ms total)
T0EBC 001:693 JLINK_IsHalted()  returns FALSE (0000ms, 0860ms total)
T0EBC 001:694 JLINK_IsHalted()  returns FALSE (0000ms, 0860ms total)
T0EBC 001:695 JLINK_IsHalted()  returns FALSE (0000ms, 0860ms total)
T0EBC 001:699 JLINK_IsHalted()  returns FALSE (0000ms, 0860ms total)
T0EBC 001:700 JLINK_IsHalted()  returns FALSE (0000ms, 0860ms total)
T0EBC 001:701 JLINK_IsHalted()  returns FALSE (0000ms, 0860ms total)
T0EBC 001:702 JLINK_IsHalted()  returns FALSE (0000ms, 0860ms total)
T0EBC 001:703 JLINK_IsHalted()  returns FALSE (0000ms, 0860ms total)
T0EBC 001:704 JLINK_IsHalted()  returns FALSE (0000ms, 0860ms total)
T0EBC 001:705 JLINK_IsHalted()  returns FALSE (0000ms, 0860ms total)
T0EBC 001:706 JLINK_IsHalted()  returns FALSE (0000ms, 0860ms total)
T0EBC 001:708 JLINK_IsHalted()  returns FALSE (0000ms, 0860ms total)
T0EBC 001:715 JLINK_IsHalted()  returns FALSE (0000ms, 0860ms total)
T0EBC 001:716 JLINK_IsHalted() -- CPU_ReadMem(2 bytes @ 0x20000000)  returns TRUE (0003ms, 0863ms total)
T0EBC 001:719 JLINK_ReadReg(R15 (PC))  returns 0x20000000 (0000ms, 0860ms total)
T0EBC 001:719 JLINK_ClrBPEx(BPHandle = 0x0000000E)  returns 0x00 (0000ms, 0860ms total)
T0EBC 001:719 JLINK_ReadReg(R0)  returns 0x00000000 (0000ms, 0860ms total)
